Circuit: * C:\Libros Técnicos\Electrónica\Simulaciones Art of Electronics\02_22 - Transistor current-source circuits\02_22 - Transistor current-source circuits.asc

Direct Newton iteration for .op point succeeded.
Semiconductor Device Operating Points:
                        --- Diodes ---
Name:      d4          d3          d2          d1
Model:   1n4148      1n4148      1n4148       1n750
Id:      1.73e-03    1.73e-03    1.73e-03   -1.05e-03
Vd:      6.10e-01    6.10e-01    6.10e-01   -4.44e+00
Req:     2.62e+01    2.62e+01    2.62e+01    2.63e+02
CAP:     7.70e-10    7.70e-10    7.70e-10    6.04e-11

                        --- Bipolar Transistors ---
Name:       q3          q1          q2
Model:    2n2907      2n2222      2n2222
Ib:      -7.76e-06    1.72e-06    4.49e-06
Ic:      -2.06e-03    3.79e-04    9.70e-04
Vbe:     -6.73e-01    6.28e-01    6.53e-01
Vbc:      8.17e+00   -1.06e+01   -8.37e+00
Vce:     -8.84e+00    1.12e+01    9.02e+00
BetaDC:   2.65e+02    2.21e+02    2.16e+02
Gm:       7.91e-02    1.47e-02    3.74e-02
Rpi:      3.33e+03    1.51e+04    5.76e+03
Rx:       1.00e+01    1.00e+01    1.00e+01
Ro:       6.23e+04    2.91e+05    1.12e+05
Cbe:      7.92e-11    4.43e-11    5.40e-11
Cbc:      3.53e-12    3.27e-12    3.51e-12
Cjs:      0.00e+00    0.00e+00    0.00e+00
BetaAC:   2.64e+02    2.21e+02    2.15e+02
Cbx:      0.00e+00    0.00e+00    0.00e+00
Ft:       1.52e+08    4.91e+07    1.03e+08



Date: Sun Jan 11 18:38:32 2015
Total elapsed time: 0.018 seconds.

tnom = 27
temp = 27
method = trap
totiter = 26
traniter = 0
tranpoints = 0
accept = 0
rejected = 0
matrix size = 30
fillins = 0
solver = Normal
Matrix Compiler1: 1,71 KB object code size
Matrix Compiler2: 2,30 KB object code size

